!CSV A.01.01
!Keysight Technologies,N5227A,US51270324,A.10.65.16
!Date: Thursday, December 04, 2025 00:48:59
!Source: Standard

BEGIN CH1_DATA
Freq(Hz),S11(DB),S11(DEG)
2300000000,-2.8265541,0.99083626
2300300000,-2.8411112,0.81146801
2300600000,-2.8436131,0.5920102
2300900000,-2.8473015,0.46210766
2301200000,-2.8544533,0.32163703
2301500000,-2.8619585,0.17704803
2301800000,-2.8671486,0.020808926
2302100000,-2.8671596,-0.15412833
2302400000,-2.8847122,-0.30829835
2302700000,-2.8866572,-0.43919018
2303000000,-2.8979614,-0.61085206
2303300000,-2.9084458,-0.79119992
2303600000,-2.9089596,-0.93946999
2303900000,-2.9113803,-1.0979197
2304200000,-2.9208443,-1.2422323
2304500000,-2.9344568,-1.4359645
2304800000,-2.9411852,-1.5794697
2305100000,-2.9502273,-1.7598627
2305400000,-2.9515281,-1.9320115
2305700000,-2.9612503,-2.0851033
2306000000,-2.9642313,-2.2378249
2306300000,-2.9694173,-2.4220121
2306600000,-2.9825227,-2.5861413
2306900000,-2.987272,-2.7257648
2307200000,-2.9946921,-2.9441495
2307500000,-3.001117,-3.1083462
2307800000,-3.0121732,-3.3205571
2308100000,-3.0201261,-3.4322274
2308400000,-3.0297065,-3.6219628
2308700000,-3.0369036,-3.816128
2309000000,-3.0440795,-3.9851649
2309300000,-3.053112,-4.1679711
2309600000,-3.0616744,-4.3302116
2309900000,-3.0720587,-4.5225282
2310200000,-3.0802386,-4.7060571
2310500000,-3.0845692,-4.8653822
2310800000,-3.1030331,-5.0616741
2311100000,-3.1128621,-5.2651634
2311400000,-3.123837,-5.4383607
2311700000,-3.1260152,-5.6282563
2312000000,-3.1427257,-5.8097343
2312300000,-3.1575403,-5.9783349
2312600000,-3.1620193,-6.1898103
2312900000,-3.1723883,-6.3302269
2313200000,-3.187705,-6.5202956
2313500000,-3.2037299,-6.6973019
2313800000,-3.2085586,-6.8597727
2314100000,-3.2237065,-7.0213165
2314400000,-3.2338617,-7.2427249
2314700000,-3.2483084,-7.4116793
2315000000,-3.2581813,-7.6046491
2315300000,-3.2671378,-7.7574816
2315600000,-3.2807429,-7.9410472
2315900000,-3.2918518,-8.1041813
2316200000,-3.3043811,-8.3066568
2316500000,-3.317529,-8.4436092
2316800000,-3.333348,-8.6024637
2317100000,-3.3479619,-8.8149738
2317400000,-3.3521931,-8.9881525
2317700000,-3.3710587,-9.1100588
2318000000,-3.3819153,-9.3009911
2318300000,-3.3972278,-9.4755173
2318600000,-3.4005826,-9.703764
2318900000,-3.4130321,-9.8195219
2319200000,-3.4278483,-9.9714985
2319500000,-3.437175,-10.188626
2319800000,-3.4535604,-10.31592
2320100000,-3.4619923,-10.518721
2320400000,-3.4757636,-10.699342
2320700000,-3.4902964,-10.83459
2321000000,-3.5011058,-11.000764
2321300000,-3.510865,-11.196976
2321600000,-3.5192993,-11.350026
2321900000,-3.5387135,-11.539437
2322200000,-3.5446825,-11.726761
2322500000,-3.5584095,-11.909468
2322800000,-3.5708055,-12.089776
2323100000,-3.5840423,-12.245112
2323400000,-3.59519,-12.392809
2323700000,-3.6035321,-12.59774
2324000000,-3.6141822,-12.771216
2324300000,-3.6324313,-12.971938
2324600000,-3.6404049,-13.140036
2324900000,-3.6597052,-13.301891
2325200000,-3.667418,-13.490385
2325500000,-3.6794949,-13.613854
2325800000,-3.6950412,-13.812922
2326100000,-3.703711,-13.979264
2326400000,-3.7149768,-14.199387
2326700000,-3.7254801,-14.374393
2327000000,-3.7396734,-14.556539
2327300000,-3.7522051,-14.691148
2327600000,-3.7672236,-14.892435
2327900000,-3.7809563,-15.057216
2328200000,-3.7877443,-15.252375
2328500000,-3.7973154,-15.452385
2328800000,-3.8181341,-15.606931
2329100000,-3.8244321,-15.795987
2329400000,-3.8350174,-16.001886
2329700000,-3.8494346,-16.204615
2330000000,-3.8646319,-16.389412
2330300000,-3.8770459,-16.556496
2330600000,-3.8887682,-16.717976
2330900000,-3.9000545,-16.920378
2331200000,-3.9140155,-17.123035
2331500000,-3.9288394,-17.254711
2331800000,-3.9404824,-17.458603
2332100000,-3.9546554,-17.650719
2332400000,-3.9705477,-17.845814
2332700000,-3.9860632,-18.040213
2333000000,-3.9922152,-18.194324
2333300000,-4.0006814,-18.394396
2333600000,-4.0183334,-18.579226
2333900000,-4.0352283,-18.751783
2334200000,-4.0462794,-18.952707
2334500000,-4.0641971,-19.105513
2334800000,-4.0743618,-19.334959
2335100000,-4.0899439,-19.569317
2335400000,-4.102128,-19.727249
2335700000,-4.1174626,-19.917957
2336000000,-4.1307182,-20.122
2336300000,-4.1421223,-20.330616
2336600000,-4.1542306,-20.531292
2336900000,-4.1712799,-20.700737
2337200000,-4.1834669,-20.916113
2337500000,-4.1965532,-21.116211
2337800000,-4.2124872,-21.285263
2338100000,-4.2215571,-21.483307
2338400000,-4.2414861,-21.683477
2338700000,-4.2621608,-21.913876
2339000000,-4.2761278,-22.09059
2339300000,-4.2837906,-22.300591
2339600000,-4.2988214,-22.546478
2339900000,-4.322681,-22.715689
2340200000,-4.3314743,-22.933563
2340500000,-4.3518939,-23.170448
2340800000,-4.3657646,-23.39773
2341100000,-4.3829589,-23.554434
2341400000,-4.3996015,-23.798443
2341700000,-4.4138188,-23.927769
2342000000,-4.4303327,-24.170294
2342300000,-4.4547362,-24.388544
2342600000,-4.476491,-24.57732
2342900000,-4.4817667,-24.758892
2343200000,-4.5071507,-24.960899
2343500000,-4.5311489,-25.154316
2343800000,-4.5412712,-25.353195
2344100000,-4.5580125,-25.567913
2344400000,-4.5773854,-25.773846
2344700000,-4.5938783,-25.946724
2345000000,-4.6188641,-26.151636
2345300000,-4.626677,-26.364592
2345600000,-4.6444244,-26.54192
2345900000,-4.6664557,-26.720133
2346200000,-4.6869206,-26.947941
2346500000,-4.7027926,-27.119217
2346800000,-4.718421,-27.326551
2347100000,-4.7340965,-27.533054
2347400000,-4.7544227,-27.691641
2347700000,-4.769207,-27.939409
2348000000,-4.7873793,-28.136267
2348300000,-4.810648,-28.332596
2348600000,-4.8210878,-28.499304
2348900000,-4.8427367,-28.660696
2349200000,-4.8523059,-28.880701
2349500000,-4.8744235,-29.096729
2349800000,-4.8875957,-29.278101
2350100000,-4.9083676,-29.503241
2350400000,-4.9294119,-29.698654
2350700000,-4.9493337,-29.879875
2351000000,-4.9631071,-30.106384
2351300000,-4.979732,-30.28747
2351600000,-4.9933434,-30.516069
2351900000,-5.0058079,-30.710531
2352200000,-5.0293107,-30.908525
2352500000,-5.036377,-31.102852
2352800000,-5.054821,-31.321943
2353100000,-5.0740442,-31.565176
2353400000,-5.0859442,-31.709509
2353700000,-5.1045756,-31.962919
2354000000,-5.1196227,-32.20462
2354300000,-5.1347685,-32.385338
2354600000,-5.1545248,-32.612591
2354900000,-5.1628408,-32.861137
2355200000,-5.1832409,-33.042728
2355500000,-5.1962929,-33.279922
2355800000,-5.2146797,-33.518002
2356100000,-5.2263346,-33.742142
2356400000,-5.2512426,-33.965309
2356700000,-5.2754865,-34.202637
2357000000,-5.2871313,-34.4813
2357300000,-5.3075089,-34.7099
2357600000,-5.3230877,-34.938274
2357900000,-5.3453274,-35.188953
2358200000,-5.3619437,-35.425156
2358500000,-5.377635,-35.683472
2358800000,-5.4041691,-35.897369
2359100000,-5.4287496,-36.153061
2359400000,-5.4419956,-36.376858
2359700000,-5.4705796,-36.622841
2360000000,-5.4878669,-36.851883
2360300000,-5.5121636,-37.082836
2360600000,-5.538137,-37.333881
2360900000,-5.5598145,-37.547626
2361200000,-5.5771322,-37.820076
2361500000,-5.5965118,-38.060184
2361800000,-5.6209273,-38.271049
2362100000,-5.6401782,-38.534187
2362400000,-5.6700892,-38.749325
2362700000,-5.6947012,-38.970749
2363000000,-5.7127304,-39.250675
2363300000,-5.7396336,-39.524563
2363600000,-5.765501,-39.736977
2363900000,-5.7902946,-39.986309
2364200000,-5.8140764,-40.218388
2364500000,-5.8376284,-40.445675
2364800000,-5.8593421,-40.674686
2365100000,-5.8863306,-40.870476
2365400000,-5.9125094,-41.086033
2365700000,-5.9336329,-41.373135
2366000000,-5.9597816,-41.58831
2366300000,-5.9858999,-41.848206
2366600000,-6.0099583,-42.032932
2366900000,-6.0369897,-42.287418
2367200000,-6.0567765,-42.510746
2367500000,-6.0779095,-42.768093
2367800000,-6.1019416,-42.972347
2368100000,-6.1341586,-43.223953
2368400000,-6.1605392,-43.48093
2368700000,-6.1844711,-43.692287
2369000000,-6.2021608,-43.917637
2369300000,-6.2271204,-44.152294
2369600000,-6.255281,-44.370083
2369900000,-6.2765899,-44.611576
2370200000,-6.2986836,-44.832302
2370500000,-6.3266912,-45.081638
2370800000,-6.3455935,-45.345886
2371100000,-6.370955,-45.586441
2371400000,-6.3912621,-45.783936
2371700000,-6.4212885,-46.05991
2372000000,-6.4423699,-46.299324
2372300000,-6.4679236,-46.553734
2372600000,-6.492044,-46.783401
2372900000,-6.5148096,-47.007923
2373200000,-6.5393782,-47.263184
2373500000,-6.5677881,-47.511356
2373800000,-6.5880437,-47.797894
2374100000,-6.6083784,-48.037197
2374400000,-6.6370263,-48.331722
2374700000,-6.6628141,-48.579468
2375000000,-6.6865273,-48.818558
2375300000,-6.7158394,-49.089722
2375600000,-6.7455401,-49.356152
2375900000,-6.7645211,-49.602058
2376200000,-6.7951088,-49.899822
2376500000,-6.8152218,-50.113514
2376800000,-6.8353753,-50.371254
2377100000,-6.8635092,-50.639645
2377400000,-6.8882985,-50.866955
2377700000,-6.9153528,-51.139095
2378000000,-6.9444432,-51.373077
2378300000,-6.9665451,-51.649311
2378600000,-6.995615,-51.935856
2378900000,-7.0210056,-52.215275
2379200000,-7.0405822,-52.469212
2379500000,-7.0665579,-52.740147
2379800000,-7.0981312,-53.006859
2380100000,-7.1218801,-53.298588
2380400000,-7.1449275,-53.60355
2380700000,-7.1752067,-53.859219
2381000000,-7.1952062,-54.117775
2381300000,-7.2263093,-54.423801
2381600000,-7.2461023,-54.715855
2381900000,-7.2743754,-54.984585
2382200000,-7.3022032,-55.268749
2382500000,-7.3247271,-55.559887
2382800000,-7.3557553,-55.892582
2383100000,-7.3820877,-56.201061
2383400000,-7.4083719,-56.460472
2383700000,-7.4342294,-56.787251
2384000000,-7.4603548,-57.102016
2384300000,-7.4918771,-57.417725
2384600000,-7.518219,-57.729088
2384900000,-7.5435157,-58.009342
2385200000,-7.5764761,-58.370243
2385500000,-7.6045055,-58.669518
2385800000,-7.631279,-58.999931
2386100000,-7.6647396,-59.350651
2386400000,-7.6919665,-59.615345
2386700000,-7.7239542,-59.966808
2387000000,-7.7533436,-60.307304
2387300000,-7.7824359,-60.609009
2387600000,-7.8177953,-60.932987
2387900000,-7.8466821,-61.275875
2388200000,-7.8814464,-61.608265
2388500000,-7.9096107,-61.97467
2388800000,-7.9496756,-62.289009
2389100000,-7.9858551,-62.598022
2389400000,-8.0167131,-63.006691
2389700000,-8.0448103,-63.324753
2390000000,-8.0876455,-63.670525
2390300000,-8.1245079,-63.985077
2390600000,-8.1577415,-64.371071
2390900000,-8.1965609,-64.699944
2391200000,-8.231061,-64.989861
2391500000,-8.268609,-65.387535
2391800000,-8.3122721,-65.705254
2392100000,-8.354248,-66.060173
2392400000,-8.3868513,-66.395966
2392700000,-8.4206047,-66.757591
2393000000,-8.4615326,-67.045815
2393300000,-8.4984388,-67.404343
2393600000,-8.5432673,-67.770546
2393900000,-8.5816898,-68.114601
2394200000,-8.6173744,-68.473656
2394500000,-8.6570511,-68.842369
2394800000,-8.6958561,-69.158852
2395100000,-8.7356644,-69.514542
2395400000,-8.7746515,-69.853302
2395700000,-8.8170996,-70.183907
2396000000,-8.8621016,-70.553223
2396300000,-8.8969812,-70.900024
2396600000,-8.9338808,-71.211952
2396900000,-8.9831553,-71.52977
2397200000,-9.0280933,-71.876335
2397500000,-9.0647783,-72.227036
2397800000,-9.0960121,-72.556099
2398100000,-9.1439638,-72.929184
2398400000,-9.1807261,-73.288277
2398700000,-9.2253981,-73.676598
2399000000,-9.2578096,-74.013443
2399300000,-9.2984123,-74.409653
2399600000,-9.3436556,-74.768333
2399900000,-9.3862705,-75.175316
2400200000,-9.423624,-75.541794
2400500000,-9.4691019,-75.953194
2400800000,-9.522296,-76.295853
2401100000,-9.5574551,-76.68576
2401400000,-9.6016912,-77.060173
2401700000,-9.6530848,-77.434731
2402000000,-9.6970634,-77.782562
2402300000,-9.7412634,-78.155319
2402600000,-9.7810249,-78.590248
2402900000,-9.8325253,-78.939812
2403200000,-9.874939,-79.328957
2403500000,-9.9200878,-79.758446
2403800000,-9.9635534,-80.083443
2404100000,-10.009752,-80.493233
2404400000,-10.056999,-80.92717
2404700000,-10.108682,-81.301903
2405000000,-10.154731,-81.693146
2405300000,-10.195218,-82.087013
2405600000,-10.234226,-82.46273
2405900000,-10.290169,-82.903442
2406200000,-10.338437,-83.2892
2406500000,-10.380967,-83.616493
2406800000,-10.429895,-84.04892
2407100000,-10.478724,-84.423828
2407400000,-10.511818,-84.818047
2407700000,-10.565708,-85.234207
2408000000,-10.611843,-85.693787
2408300000,-10.66944,-86.147896
2408600000,-10.711268,-86.524345
2408900000,-10.756302,-86.954048
2409200000,-10.802656,-87.443527
2409500000,-10.852213,-87.823898
2409800000,-10.900768,-88.282784
2410100000,-10.953834,-88.733307
2410400000,-11.006301,-89.205803
2410700000,-11.063405,-89.633728
2411000000,-11.108869,-90.021011
2411300000,-11.152806,-90.48867
2411600000,-11.21144,-90.939774
2411900000,-11.263733,-91.322983
2412200000,-11.312583,-91.760536
2412500000,-11.379936,-92.188004
2412800000,-11.429571,-92.609276
2413100000,-11.483431,-93.058701
2413400000,-11.536513,-93.483864
2413700000,-11.579969,-93.902702
2414000000,-11.634839,-94.352882
2414300000,-11.696232,-94.725739
2414600000,-11.737166,-95.212967
2414900000,-11.780967,-95.651054
2415200000,-11.834487,-96.08477
2415500000,-11.887647,-96.516251
2415800000,-11.936015,-96.987473
2416100000,-11.984014,-97.426048
2416400000,-12.03103,-97.895233
2416700000,-12.073373,-98.366096
2417000000,-12.12344,-98.856186
2417300000,-12.174598,-99.350037
2417600000,-12.220328,-99.821762
2417900000,-12.259789,-100.37097
2418200000,-12.305625,-100.79764
2418500000,-12.354317,-101.27746
2418800000,-12.394973,-101.81268
2419100000,-12.442466,-102.29942
2419400000,-12.502917,-102.84803
2419700000,-12.543499,-103.36836
2420000000,-12.591485,-103.87856
2420300000,-12.638788,-104.40382
2420600000,-12.680031,-105.01369
2420900000,-12.731037,-105.59563
2421200000,-12.781405,-106.09929
2421500000,-12.830651,-106.65383
2421800000,-12.871557,-107.19491
2422100000,-12.918935,-107.70615
2422400000,-12.963509,-108.29895
2422700000,-13.002868,-108.89141
2423000000,-13.049748,-109.44175
2423300000,-13.107378,-110.04431
2423600000,-13.157731,-110.66621
2423900000,-13.200445,-111.31179
2424200000,-13.242661,-111.89823
2424500000,-13.297059,-112.55492
2424800000,-13.345408,-113.1823
2425100000,-13.384033,-113.80795
2425400000,-13.444326,-114.45809
2425700000,-13.482777,-115.04748
2426000000,-13.529192,-115.66252
2426300000,-13.581165,-116.3601
2426600000,-13.622237,-116.91052
2426900000,-13.676675,-117.60981
2427200000,-13.715939,-118.22517
2427500000,-13.756744,-118.91242
2427800000,-13.794124,-119.59093
2428100000,-13.843196,-120.2588
2428400000,-13.879932,-120.94204
2428700000,-13.917322,-121.59743
2429000000,-13.963232,-122.36152
2429300000,-13.999973,-123.10941
2429600000,-14.051665,-123.75939
2429900000,-14.09729,-124.5546
2430200000,-14.133319,-125.3167
2430500000,-14.17791,-126.06144
2430800000,-14.224627,-126.79712
2431100000,-14.259795,-127.58583
2431400000,-14.313069,-128.38493
2431700000,-14.348304,-129.11845
2432000000,-14.395378,-129.96494
2432300000,-14.43579,-130.69411
2432600000,-14.476389,-131.49197
2432900000,-14.517122,-132.28569
2433200000,-14.559953,-133.0901
2433500000,-14.611277,-133.94598
2433800000,-14.653665,-134.73143
2434100000,-14.698028,-135.50818
2434400000,-14.742393,-136.29778
2434700000,-14.795135,-137.08032
2435000000,-14.827012,-137.94804
2435300000,-14.866597,-138.70628
2435600000,-14.90445,-139.51355
2435900000,-14.933457,-140.31114
2436200000,-14.967299,-141.19234
2436500000,-14.999863,-142.0105
2436800000,-15.037754,-142.80901
2437100000,-15.071922,-143.7204
2437400000,-15.102126,-144.56946
2437700000,-15.141644,-145.3956
2438000000,-15.175281,-146.2628
2438300000,-15.206924,-147.12296
2438600000,-15.239127,-148.00209
2438900000,-15.275147,-148.9048
2439200000,-15.306808,-149.84825
2439500000,-15.33568,-150.63832
2439800000,-15.36877,-151.59273
2440100000,-15.397256,-152.41603
2440400000,-15.424493,-153.2083
2440700000,-15.459601,-154.1933
2441000000,-15.481169,-155.04057
2441300000,-15.498319,-155.81799
2441600000,-15.525143,-156.70334
2441900000,-15.553446,-157.63808
2442200000,-15.572641,-158.51952
2442500000,-15.583836,-159.31168
2442800000,-15.612935,-160.2581
2443100000,-15.613096,-161.13019
2443400000,-15.623033,-162.01527
2443700000,-15.648435,-162.8443
2444000000,-15.658699,-163.7334
2444300000,-15.670966,-164.61087
2444600000,-15.677833,-165.44519
2444900000,-15.675035,-166.42769
2445200000,-15.687578,-167.25655
2445500000,-15.686327,-168.24516
2445800000,-15.697062,-169.04756
2446100000,-15.682225,-170.10291
2446400000,-15.700097,-171.03159
2446700000,-15.698065,-171.89311
2447000000,-15.705669,-172.82439
2447300000,-15.688974,-173.73247
2447600000,-15.700884,-174.67212
2447900000,-15.698732,-175.59068
2448200000,-15.686345,-176.51256
2448500000,-15.687966,-177.45433
2448800000,-15.69737,-178.38092
2449100000,-15.700316,-179.20326
2449400000,-15.702683,179.73996
2449700000,-15.696421,178.92378
2450000000,-15.689777,178.04955
2450300000,-15.687954,177.13911
2450600000,-15.694248,176.3187
2450900000,-15.688917,175.38663
2451200000,-15.681231,174.58006
2451500000,-15.691344,173.70644
2451800000,-15.68005,172.82541
2452100000,-15.674233,171.99728
2452400000,-15.672802,171.24789
2452700000,-15.66632,170.45393
2453000000,-15.661276,169.59201
2453300000,-15.663672,168.87917
2453600000,-15.642855,168.1611
2453900000,-15.636493,167.40154
2454200000,-15.62252,166.66948
2454500000,-15.611976,165.97928
2454800000,-15.592539,165.22084
2455100000,-15.565691,164.52306
2455400000,-15.542493,163.78503
2455700000,-15.514555,163.07274
2456000000,-15.494117,162.39857
2456300000,-15.47345,161.71269
2456600000,-15.447633,161.07414
2456900000,-15.425764,160.27069
2457200000,-15.38823,159.74471
2457500000,-15.369789,159.13208
2457800000,-15.334818,158.46271
2458100000,-15.297502,157.91547
2458400000,-15.269604,157.2113
2458700000,-15.226774,156.72662
2459000000,-15.178972,156.03801
2459300000,-15.144108,155.48639
2459600000,-15.11025,154.87967
2459900000,-15.049741,154.20885
2460200000,-14.995486,153.65428
2460500000,-14.951024,153.06992
2460800000,-14.899085,152.44502
2461100000,-14.847259,151.84377
2461400000,-14.802241,151.25215
2461700000,-14.74048,150.67189
2462000000,-14.695196,150.02896
2462300000,-14.635253,149.51158
2462600000,-14.572359,148.92241
2462900000,-14.52585,148.23016
2463200000,-14.465503,147.63556
2463500000,-14.397562,147.05206
2463800000,-14.336887,146.35626
2464100000,-14.278919,145.86101
2464400000,-14.22061,145.19029
2464700000,-14.162698,144.55042
2465000000,-14.112738,143.85391
2465300000,-14.048351,143.19081
2465600000,-13.983126,142.5381
2465900000,-13.930645,141.91357
2466200000,-13.885801,141.28183
2466500000,-13.83488,140.64883
2466800000,-13.776846,140.06795
2467100000,-13.724608,139.43588
2467400000,-13.67042,138.84064
2467700000,-13.618532,138.28548
2468000000,-13.558372,137.62914
2468300000,-13.513756,136.98099
2468600000,-13.466081,136.39252
2468900000,-13.416059,135.81161
2469200000,-13.365565,135.25424
2469500000,-13.304935,134.70364
2469800000,-13.243872,134.08577
2470100000,-13.195813,133.51407
2470400000,-13.148333,132.91579
2470700000,-13.09902,132.36383
2471000000,-13.045266,131.77983
2471300000,-12.989845,131.28923
2471600000,-12.950799,130.71532
2471900000,-12.897779,130.14865
2472200000,-12.836713,129.57632
2472500000,-12.804523,129.08011
2472800000,-12.751357,128.61557
2473100000,-12.698545,128.01193
2473400000,-12.650408,127.46576
2473700000,-12.609083,126.95734
2474000000,-12.553447,126.39455
2474300000,-12.500098,125.93555
2474600000,-12.449441,125.43613
2474900000,-12.405545,124.85034
2475200000,-12.34757,124.37296
2475500000,-12.301694,123.86627
2475800000,-12.25222,123.35318
2476100000,-12.197881,122.83953
2476400000,-12.143816,122.29379
2476700000,-12.098959,121.80457
2477000000,-12.046078,121.19965
2477300000,-12.009231,120.70277
2477600000,-11.949154,120.22283
2477900000,-11.915476,119.74318
2478200000,-11.873747,119.25249
2478500000,-11.824002,118.73832
2478800000,-11.779807,118.20864
2479100000,-11.744829,117.76754
2479400000,-11.699979,117.26777
2479700000,-11.652404,116.81335
2480000000,-11.616496,116.34
2480300000,-11.569126,115.86875
2480600000,-11.535449,115.37381
2480900000,-11.494884,114.88248
2481200000,-11.446475,114.44617
2481500000,-11.40834,114.03864
2481800000,-11.366134,113.59095
