!CSV A.01.01
!Keysight Technologies,N5227A,US51270324,A.10.65.16
!Date: Friday, November 07, 2025 00:11:27
!Source: Standard

BEGIN CH1_DATA
Freq(Hz),S11(REAL),S11(IMAG)
2300000000,0.73864609,0.19232501
2300200000,0.7386927,0.19058721
2300400000,0.73872757,0.18985488
2300600000,0.73832983,0.18853953
2300800000,0.73811078,0.1871061
2301000000,0.73747134,0.18585044
2301200000,0.73748457,0.18445724
2301400000,0.73718232,0.18324625
2301600000,0.73719198,0.18186823
2301800000,0.73734951,0.1805995
2302000000,0.73631632,0.17940274
2302200000,0.736049,0.17794348
2302400000,0.73628545,0.17670719
2302600000,0.73628724,0.17554295
2302800000,0.73592627,0.17421471
2303000000,0.73584563,0.17280705
2303200000,0.73493844,0.17150605
2303400000,0.7351585,0.16998976
2303600000,0.73516971,0.1689629
2303800000,0.73436129,0.16742532
2304000000,0.73469061,0.16625778
2304200000,0.73468584,0.16483116
2304400000,0.73357254,0.16342919
2304600000,0.73342592,0.16219668
2304800000,0.73359412,0.16086951
2305000000,0.73349947,0.15978387
2305200000,0.7324211,0.15828203
2305400000,0.73250777,0.15670992
2305600000,0.73213571,0.15556435
2305800000,0.73192233,0.15428577
2306000000,0.73210001,0.15309402
2306200000,0.73197681,0.15179048
2306400000,0.7313869,0.15012231
2306600000,0.73081094,0.14903484
2306800000,0.73009104,0.14767215
2307000000,0.7303105,0.14643407
2307200000,0.73008615,0.14542854
2307400000,0.72986245,0.14382306
2307600000,0.72937477,0.1424014
2307800000,0.72904432,0.14117505
2308000000,0.72910547,0.13991569
2308200000,0.7285682,0.13860683
2308400000,0.72841346,0.13741088
2308600000,0.72824144,0.13596971
2308800000,0.72762787,0.1345271
2309000000,0.7270993,0.13327768
2309200000,0.72699028,0.13204102
2309400000,0.72675288,0.13059933
2309600000,0.72655505,0.12967886
2309800000,0.72611785,0.1280179
2310000000,0.72584099,0.12670407
2310200000,0.72550189,0.12568271
2310400000,0.72503895,0.12401382
2310600000,0.72491807,0.12277421
2310800000,0.7246058,0.1213831
2311000000,0.72410619,0.11984983
2311200000,0.72410685,0.11870791
2311400000,0.72358042,0.11728839
2311600000,0.72302401,0.11576729
2311800000,0.72293049,0.11457967
2312000000,0.72272789,0.1133621
2312200000,0.72243148,0.11194608
2312400000,0.72180378,0.11061648
2312600000,0.72181404,0.1092694
2312800000,0.72120637,0.10829129
2313000000,0.72080588,0.10673594
2313200000,0.72051197,0.10534753
2313400000,0.72007155,0.10392544
2313600000,0.71972054,0.10262943
2313800000,0.71926862,0.10133928
2314000000,0.71879029,0.09996336
2314200000,0.71896547,0.098697327
2314400000,0.71836102,0.097488053
2314600000,0.71802026,0.096134797
2314800000,0.71760941,0.094610609
2315000000,0.71725905,0.093297765
2315200000,0.71693343,0.092090085
2315400000,0.71634734,0.0905011
2315600000,0.71592426,0.089380331
2315800000,0.71553159,0.087707862
2316000000,0.71489137,0.086517744
2316200000,0.71450651,0.08490181
2316400000,0.71417832,0.083842769
2316600000,0.71413994,0.082499608
2316800000,0.71334088,0.081179276
2317000000,0.71316075,0.079607859
2317200000,0.71270508,0.078293726
2317400000,0.71231693,0.076848723
2317600000,0.71185756,0.075510114
2317800000,0.7116136,0.074166715
2318000000,0.71083474,0.073147729
2318200000,0.71030146,0.071558498
2318400000,0.71002871,0.07050354
2318600000,0.71003848,0.068794213
2318800000,0.70885897,0.067545429
2319000000,0.70869303,0.06627135
2319200000,0.70828187,0.064648464
2319400000,0.70785981,0.063661635
2319600000,0.70729017,0.062546305
2319800000,0.7071107,0.061077673
2320000000,0.70663077,0.059541427
2320200000,0.70572084,0.058151785
2320400000,0.7054925,0.056422509
2320600000,0.70550758,0.055437449
2320800000,0.70540589,0.053897262
2321000000,0.70442319,0.052617777
2321200000,0.70364839,0.05122022
2321400000,0.70355266,0.050055955
2321600000,0.70266056,0.048748512
2321800000,0.70235556,0.047364958
2322000000,0.70204026,0.046095796
2322200000,0.70192713,0.044987425
2322400000,0.7011261,0.043275077
2322600000,0.70052648,0.042164166
2322800000,0.69988483,0.040697444
2323000000,0.69944906,0.03941527
2323200000,0.6989004,0.038547959
2323400000,0.69849932,0.03681675
2323600000,0.69800282,0.035382558
2323800000,0.69774854,0.034346681
2324000000,0.69721603,0.032801513
2324200000,0.69653451,0.031664189
2324400000,0.69624072,0.030177033
2324600000,0.69557393,0.029126164
2324800000,0.69487292,0.027490798
2325000000,0.69422328,0.026108973
2325200000,0.69391257,0.024722766
2325400000,0.69334394,0.023572123
2325600000,0.69294858,0.022546293
2325800000,0.69239658,0.021057682
2326000000,0.69204396,0.019546479
2326200000,0.69173479,0.018197371
2326400000,0.69116622,0.016932625
2326600000,0.69057977,0.015572437
2326800000,0.69041544,0.014509134
2327000000,0.68987596,0.013009496
2327200000,0.68978202,0.01193431
2327400000,0.6886574,0.01066648
2327600000,0.6879403,0.0091700889
2327800000,0.68734187,0.0079204468
2328000000,0.68704587,0.0067791748
2328200000,0.6867708,0.0053790389
2328400000,0.68584216,0.003827201
2328600000,0.68542576,0.0027124728
2328800000,0.68494028,0.0015928177
2329000000,0.68446761,0.00043794204
2329200000,0.68404722,-0.0012422374
2329400000,0.68332171,-0.0024908285
2329600000,0.68296027,-0.0037321937
2329800000,0.6825245,-0.0050933114
2330000000,0.68180794,-0.0064603752
2330200000,0.68136728,-0.0076175914
2330400000,0.68072736,-0.0090245195
2330600000,0.68058842,-0.010492919
2330800000,0.68026716,-0.011601215
2331000000,0.67954487,-0.01294737
2331200000,0.67923033,-0.014175448
2331400000,0.67870981,-0.015452788
2331600000,0.67787051,-0.016670214
2331800000,0.67750281,-0.017969441
2332000000,0.67675704,-0.019583935
2332200000,0.67653096,-0.020643612
2332400000,0.6759795,-0.022137476
2332600000,0.67552483,-0.023060501
2332800000,0.67502302,-0.02473559
2333000000,0.67443883,-0.025946382
2333200000,0.67374402,-0.027296223
2333400000,0.67351115,-0.028599566
2333600000,0.67256856,-0.030130982
2333800000,0.67231768,-0.031359248
2334000000,0.6715337,-0.03268142
2334200000,0.67105895,-0.033954732
2334400000,0.67045325,-0.035417158
2334600000,0.67025393,-0.036481347
2334800000,0.66973019,-0.037888464
2335000000,0.66907197,-0.039091352
2335200000,0.66849321,-0.040462211
2335400000,0.6683442,-0.041866977
2335600000,0.66748166,-0.043314543
2335800000,0.66710812,-0.04436243
2336000000,0.66633385,-0.045651518
2336200000,0.66550124,-0.047080468
2336400000,0.66495812,-0.048353542
2336600000,0.66458696,-0.049787924
2336800000,0.6643005,-0.050998088
2337000000,0.66370434,-0.052393444
2337200000,0.66315871,-0.053654835
2337400000,0.66237509,-0.054800551
2337600000,0.66202641,-0.056033127
2337800000,0.66118264,-0.057269398
2338000000,0.66075999,-0.058424033
2338200000,0.66003335,-0.059982672
2338400000,0.65916705,-0.06144806
2338600000,0.6589883,-0.062802635
2338800000,0.65841812,-0.064006515
2339000000,0.65773731,-0.065440215
2339200000,0.65701956,-0.066596784
2339400000,0.6571871,-0.067871138
2339600000,0.65644199,-0.069158532
2339800000,0.65533978,-0.070421882
2340000000,0.65472203,-0.071816385
2340200000,0.65445834,-0.073319785
2340400000,0.65369856,-0.07403063
2340600000,0.65297556,-0.075654104
2340800000,0.6528092,-0.077049382
2341000000,0.65201366,-0.07852672
2341200000,0.65151846,-0.079488143
2341400000,0.65050685,-0.081150077
2341600000,0.64984584,-0.082751803
2341800000,0.64930195,-0.083863072
2342000000,0.64908618,-0.084975481
2342200000,0.64826441,-0.086498782
2342400000,0.64785767,-0.087744132
2342600000,0.64709014,-0.088921644
2342800000,0.64633775,-0.090316534
2343000000,0.64594024,-0.091421634
2343200000,0.64499438,-0.092694327
2343400000,0.64481145,-0.094208486
2343600000,0.64390981,-0.095559575
2343800000,0.64350569,-0.096521884
2344000000,0.64254987,-0.097943708
2344200000,0.64168805,-0.099055961
2344400000,0.64088345,-0.10037127
2344600000,0.64062023,-0.10184947
2344800000,0.64005089,-0.10313544
2345000000,0.63970405,-0.10441992
2345200000,0.6389277,-0.10557028
2345400000,0.63827407,-0.10698245
2345600000,0.63744998,-0.10834045
2345800000,0.6362986,-0.10950358
2346000000,0.63607436,-0.11049806
2346200000,0.63559234,-0.11189459
2346400000,0.63457537,-0.11321807
2346600000,0.63398683,-0.11439343
2346800000,0.63372391,-0.11560712
2347000000,0.6329354,-0.11707214
2347200000,0.63208139,-0.11832324
2347400000,0.63168049,-0.11970495
2347600000,0.6308009,-0.12072862
2347800000,0.63000572,-0.12240342
2348000000,0.62917107,-0.1232558
2348200000,0.62845111,-0.12468835
2348400000,0.62825286,-0.125884
2348600000,0.62741613,-0.12729649
2348800000,0.62664402,-0.12841702
2349000000,0.62601358,-0.12971547
2349200000,0.62498444,-0.13091202
2349400000,0.62442327,-0.1322007
2349600000,0.62353909,-0.13304202
2349800000,0.62317902,-0.13461439
2350000000,0.62258989,-0.1360525
2350200000,0.62165982,-0.13727653
2350400000,0.62081772,-0.1385462
2350600000,0.62043536,-0.13969052
2350800000,0.6200493,-0.14096808
2351000000,0.61887527,-0.14197455
2351200000,0.61824197,-0.14350289
2351400000,0.61780959,-0.1445422
2351600000,0.61698014,-0.14570178
2351800000,0.61599666,-0.14661464
2352000000,0.61550456,-0.14788169
2352200000,0.6147123,-0.14934133
2352400000,0.61350048,-0.15071803
2352600000,0.61290801,-0.15160511
2352800000,0.612499,-0.1532684
2353000000,0.61200744,-0.15431762
2353200000,0.61100072,-0.1554998
2353400000,0.60983449,-0.15668583
2353600000,0.60912043,-0.15833938
2353800000,0.60867608,-0.15926518
2354000000,0.60779709,-0.1602218
2354200000,0.6070258,-0.16182111
2354400000,0.60655075,-0.16290352
2354600000,0.6055733,-0.16402003
2354800000,0.60468477,-0.16544572
2355000000,0.6040675,-0.16660655
2355200000,0.6028294,-0.16763374
2355400000,0.60246247,-0.16861562
2355600000,0.6018008,-0.16989215
2355800000,0.60057259,-0.17077047
2356000000,0.59980565,-0.17238717
2356200000,0.59923345,-0.17353268
2356400000,0.59868336,-0.17456204
2356600000,0.59783137,-0.17582963
2356800000,0.5968982,-0.1770308
2357000000,0.59613991,-0.17845803
2357200000,0.59543985,-0.17961408
2357400000,0.59436059,-0.18033001
2357600000,0.5937981,-0.18181585
2357800000,0.59315586,-0.18291087
2358000000,0.59193522,-0.18392071
2358200000,0.59141368,-0.18484031
2358400000,0.59006876,-0.18589862
2358600000,0.5892843,-0.18710844
2358800000,0.58856177,-0.18817474
2359000000,0.58798528,-0.18964787
2359200000,0.58710676,-0.19083463
2359400000,0.58640754,-0.19185162
2359600000,0.58544976,-0.19285268
2359800000,0.58474672,-0.19396573
2360000000,0.58385962,-0.19525319
2360200000,0.58293748,-0.19631732
2360400000,0.58228242,-0.19746821
2360600000,0.58144623,-0.19835939
2360800000,0.58027041,-0.19926964
2361000000,0.57925665,-0.20037164
2361200000,0.57861078,-0.20150512
2361400000,0.57765156,-0.20265587
2361600000,0.57685453,-0.20389183
2361800000,0.57636756,-0.20507413
2362000000,0.57543522,-0.20613027
2362200000,0.57472306,-0.20714551
2362400000,0.57348955,-0.20831765
2362600000,0.57274294,-0.20958881
2362800000,0.57199162,-0.21081626
2363000000,0.57140881,-0.21169598
2363200000,0.57085598,-0.21277446
2363400000,0.56943882,-0.21334085
2363600000,0.56851864,-0.21457088
2363800000,0.56781101,-0.21555376
2364000000,0.56679559,-0.21685532
2364200000,0.56625938,-0.21809448
2364400000,0.56503165,-0.21883133
2364600000,0.56391448,-0.22005023
2364800000,0.56319487,-0.22080077
2365000000,0.56195569,-0.22184317
2365200000,0.56184608,-0.22313182
2365400000,0.56071985,-0.2242215
2365600000,0.5593937,-0.2253987
2365800000,0.55871409,-0.22642709
2366000000,0.55812269,-0.22714202
2366200000,0.55732793,-0.22825812
2366400000,0.5559994,-0.22968346
2366600000,0.55500382,-0.23053941
2366800000,0.5542568,-0.2316898
2367000000,0.553491,-0.23241083
2367200000,0.55227971,-0.23376027
2367400000,0.55133307,-0.23441523
2367600000,0.55076349,-0.23569673
2367800000,0.5495581,-0.2366223
2368000000,0.54828316,-0.23758309
2368200000,0.54752892,-0.23857909
2368400000,0.54675162,-0.23939103
2368600000,0.545627,-0.24042964
2368800000,0.54457259,-0.24163756
2369000000,0.54410046,-0.2426305
2369200000,0.54319209,-0.24340823
2369400000,0.54163307,-0.24459773
2369600000,0.54115707,-0.24571849
2369800000,0.5398972,-0.24655646
2370000000,0.5394811,-0.24764489
2370200000,0.53835976,-0.24846432
2370400000,0.53734291,-0.24967644
2370600000,0.53631616,-0.25038338
2370800000,0.53526103,-0.25120035
2371000000,0.53446567,-0.25225201
2371200000,0.53315228,-0.25336254
2371400000,0.53210205,-0.25396284
2371600000,0.53122437,-0.25489101
2371800000,0.52987254,-0.25624752
2372000000,0.52923203,-0.256955
2372200000,0.52819467,-0.25779384
2372400000,0.52745646,-0.25893205
2372600000,0.52651107,-0.25983286
2372800000,0.52504033,-0.26058051
2373000000,0.52418876,-0.26156402
2373200000,0.52334982,-0.26254243
2373400000,0.52200967,-0.26336893
2373600000,0.5212875,-0.26423562
2373800000,0.5197888,-0.26505393
2374000000,0.51906896,-0.26621255
2374200000,0.51792729,-0.26723316
2374400000,0.51698071,-0.26796064
2374600000,0.51575977,-0.26876119
2374800000,0.51458657,-0.2694926
2375000000,0.51372206,-0.2704539
2375200000,0.51253378,-0.27142975
2375400000,0.51154947,-0.27226093
2375600000,0.5104962,-0.27328357
2375800000,0.50972658,-0.27438787
2376000000,0.50830257,-0.275031
2376200000,0.50731236,-0.27563909
2376400000,0.50606412,-0.27671966
2376600000,0.50482923,-0.27748457
2376800000,0.50357074,-0.27842793
2377000000,0.50303429,-0.27901322
2377200000,0.50182742,-0.2800914
2377400000,0.50097322,-0.28083739
2377600000,0.49997789,-0.28165632
2377800000,0.49841386,-0.28247508
2378000000,0.49705195,-0.28353831
2378200000,0.49602938,-0.28416395
2378400000,0.49537542,-0.2851592
2378600000,0.49406317,-0.2860547
2378800000,0.49300349,-0.28655067
2379000000,0.49158078,-0.28716484
2379200000,0.49012983,-0.28774503
2379400000,0.4893764,-0.28901774
2379600000,0.48803329,-0.28975174
2379800000,0.48695448,-0.29054818
2380000000,0.48587754,-0.29118723
2380200000,0.48472908,-0.29211164
2380400000,0.48370847,-0.29295614
2380600000,0.48230907,-0.29377186
2380800000,0.48126367,-0.2944029
2381000000,0.48014069,-0.29486206
2381200000,0.47877938,-0.29580557
2381400000,0.47772473,-0.29678926
2381600000,0.47643533,-0.29766273
2381800000,0.47535938,-0.29832196
2382000000,0.4744184,-0.29887944
2382200000,0.47292933,-0.29942703
2382400000,0.47172284,-0.3000541
2382600000,0.47063252,-0.30068415
2382800000,0.4690032,-0.30163482
2383000000,0.46797335,-0.30270624
2383200000,0.46659198,-0.30281889
2383400000,0.46577778,-0.30381653
2383600000,0.46422309,-0.30429479
2383800000,0.46295503,-0.30489236
2384000000,0.46186599,-0.30558294
2384200000,0.46033224,-0.30640993
2384400000,0.45946229,-0.30718938
2384600000,0.4582099,-0.30755323
2384800000,0.45698589,-0.30823302
2385000000,0.45544595,-0.30872029
2385200000,0.454018,-0.30955973
2385400000,0.45309234,-0.31018203
2385600000,0.45179731,-0.31083852
2385800000,0.45038038,-0.31130633
2386000000,0.44918188,-0.31208116
2386200000,0.44788212,-0.31262115
2386400000,0.44682986,-0.31338486
2386600000,0.44528034,-0.31376112
2386800000,0.44408417,-0.31422135
2387000000,0.44284642,-0.31494775
2387200000,0.44152322,-0.31552875
2387400000,0.44019258,-0.31606975
2387600000,0.43925837,-0.31645772
2387800000,0.43785048,-0.31702152
2388000000,0.43668753,-0.31760806
2388200000,0.43523663,-0.31806239
2388400000,0.4338834,-0.31877184
2388600000,0.43252629,-0.31924713
2388800000,0.43107632,-0.31942102
2389000000,0.43010455,-0.32015324
2389200000,0.42873958,-0.32071662
2389400000,0.42739826,-0.32126549
2389600000,0.42598918,-0.32211417
2389800000,0.42479455,-0.32240522
2390000000,0.42353389,-0.32285863
2390200000,0.42225227,-0.32332206
2390400000,0.42104053,-0.32385856
2390600000,0.41923919,-0.32409865
2390800000,0.41801637,-0.32470942
2391000000,0.41676566,-0.32530302
2391200000,0.4151302,-0.32559446
2391400000,0.41383505,-0.32626244
2391600000,0.41242912,-0.32649785
2391800000,0.41135466,-0.32694453
2392000000,0.4098056,-0.32764491
2392200000,0.40857822,-0.32822791
2392400000,0.40717793,-0.32847169
2392600000,0.40602827,-0.3288013
2392800000,0.40441951,-0.3292549
2393000000,0.40315396,-0.32965091
2393200000,0.40193698,-0.33004677
2393400000,0.40057498,-0.3302097
2393600000,0.39938301,-0.33110088
2393800000,0.39778888,-0.3313404
2394000000,0.39638039,-0.33207643
2394200000,0.39525369,-0.33235532
2394400000,0.3936657,-0.33255959
2394600000,0.39207804,-0.33285275
2394800000,0.39070046,-0.33306125
2395000000,0.38918012,-0.33332288
2395200000,0.38787904,-0.33398515
2395400000,0.38642678,-0.33390141
2395600000,0.38506627,-0.33457854
2395800000,0.38354614,-0.33508226
2396000000,0.38224038,-0.33536026
2396200000,0.38089845,-0.33571985
2396400000,0.37951791,-0.33620474
2396600000,0.37807587,-0.33642045
2396800000,0.3767693,-0.33683884
2397000000,0.37484881,-0.33688778
2397200000,0.3735911,-0.3371799
2397400000,0.37208053,-0.33736873
2397600000,0.37080622,-0.33767819
2397800000,0.3693096,-0.33799574
2398000000,0.36773989,-0.33841416
2398200000,0.36633259,-0.33871239
2398400000,0.36478209,-0.33919573
2398600000,0.36332342,-0.33922514
2398800000,0.36194414,-0.33978331
2399000000,0.36055085,-0.33982426
2399200000,0.3590793,-0.34018463
2399400000,0.35740998,-0.34053957
2399600000,0.35614082,-0.34080973
2399800000,0.35475898,-0.34106928
2400000000,0.35330549,-0.34115276
2400200000,0.35151428,-0.34155297
2400400000,0.3499786,-0.34171447
2400600000,0.34839323,-0.34157649
2400800000,0.34679195,-0.34177262
2401000000,0.34527576,-0.34210432
2401200000,0.34370422,-0.34228811
2401400000,0.34251103,-0.34251946
2401600000,0.34067643,-0.34268436
2401800000,0.33929014,-0.34311864
2402000000,0.33751535,-0.34298512
2402200000,0.33598027,-0.34307635
2402400000,0.33458006,-0.34335274
2402600000,0.33304748,-0.3435671
2402800000,0.33122751,-0.34334278
2403000000,0.32993862,-0.34353796
2403200000,0.32834244,-0.34380761
2403400000,0.32689542,-0.34423059
2403600000,0.32533383,-0.34406623
2403800000,0.32347938,-0.34385619
2404000000,0.32233879,-0.34430552
2404200000,0.3204824,-0.34421715
2404400000,0.31885079,-0.3443819
2404600000,0.31731352,-0.34439301
2404800000,0.31590068,-0.34453627
2405000000,0.31416392,-0.34436646
2405200000,0.31243727,-0.34433997
2405400000,0.31069586,-0.34439433
2405600000,0.30964106,-0.34449658
2405800000,0.30771527,-0.34446365
2406000000,0.30609345,-0.34456995
2406200000,0.30469826,-0.34448093
2406400000,0.30312327,-0.3445479
2406600000,0.30124745,-0.34439218
2406800000,0.29985195,-0.34447208
2407000000,0.29808733,-0.34442472
2407200000,0.296462,-0.34423289
2407400000,0.29490012,-0.34426177
2407600000,0.29329938,-0.34432328
2407800000,0.29168636,-0.34402439
2408000000,0.28985605,-0.34403694
2408200000,0.28838003,-0.34396201
2408400000,0.28693718,-0.34399652
2408600000,0.28544685,-0.34381464
2408800000,0.28352895,-0.3436417
2409000000,0.28157589,-0.34376338
2409200000,0.28016222,-0.34353343
2409400000,0.27838483,-0.34359324
2409600000,0.27681553,-0.34324077
2409800000,0.27520356,-0.34304273
2410000000,0.27378932,-0.3427411
2410200000,0.27213183,-0.34259048
2410400000,0.27069354,-0.34249285
2410600000,0.26887426,-0.34221739
2410800000,0.26720664,-0.34226242
2411000000,0.26551709,-0.34187144
2411200000,0.26379234,-0.34172875
2411400000,0.26189893,-0.34141451
2411600000,0.26045054,-0.34128079
2411800000,0.25879657,-0.34115785
2412000000,0.2569612,-0.34075782
2412200000,0.2556276,-0.34055075
2412400000,0.25379071,-0.34024483
2412600000,0.25209579,-0.34015244
2412800000,0.25055325,-0.33972546
2413000000,0.24868676,-0.33931008
2413200000,0.24723108,-0.33903244
2413400000,0.24535558,-0.33866584
2413600000,0.24373862,-0.33858749
2413800000,0.24237707,-0.33848548
2414000000,0.24075209,-0.33821815
2414200000,0.23903365,-0.33771041
2414400000,0.23726018,-0.33719444
2414600000,0.2354984,-0.33685812
2414800000,0.23354673,-0.33636102
2415000000,0.23187895,-0.3360967
2415200000,0.23058996,-0.33578655
2415400000,0.2288464,-0.33536723
2415600000,0.22697879,-0.33516997
2415800000,0.2257008,-0.33473349
2416000000,0.22399086,-0.33452731
2416200000,0.2222884,-0.33384225
2416400000,0.22080849,-0.33345625
2416600000,0.21888021,-0.3330282
2416800000,0.21731387,-0.33274263
2417000000,0.21567816,-0.33227119
