!CSV A.01.01
!Keysight Technologies,N5227A,US51270324,A.10.65.16
!Date: Friday, November 07, 2025 00:22:59
!Source: Standard

BEGIN CH1_DATA
Freq(Hz),S11(REAL),S11(IMAG)
2300000000,0.67738825,-0.029485174
2300200000,0.67627531,-0.031352799
2300400000,0.67587292,-0.03224434
2300600000,0.67482173,-0.033760633
2300800000,0.67400014,-0.035305366
2301000000,0.67324215,-0.036381468
2301200000,0.67282468,-0.037910115
2301400000,0.67192918,-0.03947974
2301600000,0.67109704,-0.040845603
2301800000,0.67044401,-0.041915379
2302000000,0.66964161,-0.043291196
2302200000,0.66871852,-0.044966608
2302400000,0.66818887,-0.046399616
2302600000,0.66740757,-0.04766598
2302800000,0.66683739,-0.049263459
2303000000,0.66579497,-0.05052207
2303200000,0.66469103,-0.051958166
2303400000,0.66410661,-0.053523008
2303600000,0.66329402,-0.054512966
2303800000,0.66213083,-0.056227617
2304000000,0.6615997,-0.057507269
2304200000,0.6608426,-0.058786932
2304400000,0.65953177,-0.060286574
2304600000,0.65875423,-0.06146178
2304800000,0.65846199,-0.06270469
2305000000,0.65764928,-0.064095117
2305200000,0.65621912,-0.065532997
2305400000,0.65542978,-0.067011051
2305600000,0.65487754,-0.068288475
2305800000,0.65416461,-0.069749027
2306000000,0.65308815,-0.071158074
2306200000,0.65234375,-0.072415844
2306400000,0.6515137,-0.073980562
2306600000,0.6504302,-0.075065844
2306800000,0.64932084,-0.076338723
2307000000,0.64835948,-0.07807596
2307200000,0.64773381,-0.079081796
2307400000,0.64673781,-0.080580726
2307600000,0.6461758,-0.081837304
2307800000,0.64491451,-0.083190069
2308000000,0.64420974,-0.084593944
2308200000,0.64304429,-0.085775226
2308400000,0.6424678,-0.087164976
2308600000,0.64130056,-0.088596992
2308800000,0.64051992,-0.089669026
2309000000,0.63953376,-0.091364004
2309200000,0.63849264,-0.092678234
2309400000,0.6372754,-0.093940698
2309600000,0.63688499,-0.095429964
2309800000,0.63549423,-0.096709356
2310000000,0.63491464,-0.098022714
2310200000,0.63366896,-0.099059135
2310400000,0.63257849,-0.10050771
2310600000,0.63200909,-0.10187492
2310800000,0.63121861,-0.10332634
2311000000,0.63009006,-0.10442481
2311200000,0.62923533,-0.10556134
2311400000,0.62825036,-0.10698374
2311600000,0.62716275,-0.10833692
2311800000,0.62634015,-0.10964052
2312000000,0.62541181,-0.11102751
2312200000,0.62416863,-0.11258496
2312400000,0.62321085,-0.11334661
2312600000,0.62240648,-0.11482286
2312800000,0.62133932,-0.11593134
2313000000,0.62041849,-0.11739495
2313200000,0.61913484,-0.1186434
2313400000,0.61792636,-0.12000959
2313600000,0.61692446,-0.12120838
2313800000,0.61632383,-0.12238309
2314000000,0.61523366,-0.12378709
2314200000,0.61438793,-0.12522407
2314400000,0.61327779,-0.12633952
2314600000,0.61236143,-0.12746705
2314800000,0.6117605,-0.12895265
2315000000,0.61016631,-0.1300811
2315200000,0.60964036,-0.131263
2315400000,0.60853422,-0.13266273
2315600000,0.60732388,-0.13389315
2315800000,0.60628998,-0.13521492
2316000000,0.60526842,-0.13652824
2316200000,0.60425341,-0.13769633
2316400000,0.60315925,-0.13900791
2316600000,0.6025185,-0.1402721
2316800000,0.60111475,-0.1415703
2317000000,0.60023081,-0.14271507
2317200000,0.59884584,-0.14413847
2317400000,0.59806603,-0.14531451
2317600000,0.59693307,-0.14650208
2317800000,0.59587967,-0.14807011
2318000000,0.59479684,-0.14868642
2318200000,0.59390134,-0.15021233
2318400000,0.59308916,-0.15147257
2318600000,0.59203392,-0.15303446
2318800000,0.59049153,-0.15390995
2319000000,0.58955294,-0.15502438
2319200000,0.58873826,-0.15649924
2319400000,0.58754885,-0.15758729
2319600000,0.58649343,-0.15908115
2319800000,0.58550555,-0.16018233
2320000000,0.5845803,-0.16159056
2320200000,0.58322626,-0.16233438
2320400000,0.58219755,-0.16380879
2320600000,0.58094394,-0.16505952
2320800000,0.58030885,-0.1665777
2321000000,0.57886195,-0.16765504
2321200000,0.57774299,-0.16860028
2321400000,0.57689863,-0.16979952
2321600000,0.57577008,-0.17087615
2321800000,0.57474244,-0.17209284
2322000000,0.57381737,-0.17323209
2322200000,0.57292849,-0.17485222
2322400000,0.57147098,-0.17607409
2322600000,0.57061249,-0.17677324
2322800000,0.56961405,-0.17826156
2323000000,0.56804508,-0.17954977
2323200000,0.56714994,-0.1801776
2323400000,0.56599534,-0.18195747
2323600000,0.56494582,-0.18281841
2323800000,0.56388271,-0.18389191
2324000000,0.56274438,-0.18526644
2324200000,0.56149554,-0.18657975
2324400000,0.56056046,-0.18754682
2324600000,0.55957681,-0.18872908
2324800000,0.55814123,-0.19000581
2325000000,0.55660826,-0.19130407
2325200000,0.55589443,-0.19210581
2325400000,0.55469859,-0.1934415
2325600000,0.5535745,-0.1942779
2325800000,0.55262297,-0.19569935
2326000000,0.55167431,-0.19686918
2326200000,0.55033571,-0.19797465
2326400000,0.54931378,-0.19916426
2326600000,0.54832017,-0.20024703
2326800000,0.54709858,-0.20141406
2327000000,0.546193,-0.20251669
2327200000,0.54507035,-0.20367709
2327400000,0.54381979,-0.20471883
2327600000,0.54237765,-0.20582272
2327800000,0.54145497,-0.20701301
2328000000,0.54023588,-0.20807992
2328200000,0.53905582,-0.20900385
2328400000,0.53798926,-0.21031389
2328600000,0.53704137,-0.21161954
2328800000,0.53573966,-0.21255264
2329000000,0.53451955,-0.21357372
2329200000,0.53336662,-0.21474123
2329400000,0.53225785,-0.21587318
2329600000,0.53157252,-0.21717528
2329800000,0.5302856,-0.21821916
2330000000,0.52895916,-0.21930893
2330200000,0.52794594,-0.22018541
2330400000,0.52667379,-0.22121093
2330600000,0.52550471,-0.22236787
2330800000,0.52455115,-0.22339669
2331000000,0.52325851,-0.22468016
2331200000,0.52228731,-0.22590818
2331400000,0.52116215,-0.22672777
2331600000,0.51958895,-0.22782969
2331800000,0.51853627,-0.22900061
2332000000,0.51719224,-0.22982781
2332200000,0.51642007,-0.23109238
2332400000,0.5149675,-0.23222513
2332600000,0.51391453,-0.2331752
2332800000,0.51266205,-0.23428819
2333000000,0.51171553,-0.23518439
2333200000,0.51026964,-0.2365524
2333400000,0.50924265,-0.23739474
2333600000,0.50791103,-0.23857756
2333800000,0.50675571,-0.23952132
2334000000,0.50580251,-0.24065921
2334200000,0.50461912,-0.2416217
2334400000,0.50333375,-0.24280822
2334600000,0.50227916,-0.24381533
2334800000,0.50109565,-0.24481557
2335000000,0.49969363,-0.2454737
2335200000,0.49868539,-0.24684335
2335400000,0.4974156,-0.24803974
2335600000,0.4958213,-0.24884765
2335800000,0.49476355,-0.24955323
2336000000,0.49383432,-0.25070205
2336200000,0.49258336,-0.25172821
2336400000,0.49112901,-0.2529414
2336600000,0.49028403,-0.25398394
2336800000,0.48910972,-0.2549623
2337000000,0.48766181,-0.25578997
2337200000,0.48658204,-0.25685108
2337400000,0.48523256,-0.25769755
2337600000,0.48428029,-0.25876644
2337800000,0.48299572,-0.25972322
2338000000,0.48185486,-0.26049334
2338200000,0.48047543,-0.26166537
2338400000,0.47891793,-0.26250583
2338600000,0.47806269,-0.26358476
2338800000,0.47681999,-0.2645255
2339000000,0.47552389,-0.2655035
2339200000,0.47420949,-0.26678056
2339400000,0.47307035,-0.26752186
2339600000,0.47179073,-0.26843858
2339800000,0.47060937,-0.26903418
2340000000,0.46921802,-0.27021
2340200000,0.46815205,-0.27115682
2340400000,0.46718037,-0.27186656
2340600000,0.46567208,-0.27299652
2340800000,0.46452549,-0.27408558
2341000000,0.46324635,-0.27510479
2341200000,0.46201181,-0.27575991
2341400000,0.46066472,-0.27670765
2341600000,0.45918861,-0.27769056
2341800000,0.45809677,-0.27868751
2342000000,0.45684153,-0.27937916
2342200000,0.45560634,-0.28026924
2342400000,0.45450923,-0.28123385
2342600000,0.45314312,-0.28200319
2342800000,0.45172584,-0.28332257
2343000000,0.45066094,-0.28386641
2343200000,0.44927132,-0.28458127
2343400000,0.44810924,-0.28568497
2343600000,0.44700208,-0.28662601
2343800000,0.44537428,-0.28686851
2344000000,0.444159,-0.28810012
2344200000,0.44313204,-0.28914562
2344400000,0.4415879,-0.28991488
2344600000,0.44023141,-0.29073378
2344800000,0.43893766,-0.29151684
2345000000,0.43816552,-0.29247189
2345200000,0.43674833,-0.29325002
2345400000,0.43535316,-0.29415682
2345600000,0.43383676,-0.29464182
2345800000,0.43279904,-0.29526898
2346000000,0.43128735,-0.29609138
2346200000,0.43011734,-0.29699504
2346400000,0.42871803,-0.29763332
2346600000,0.42740053,-0.29829848
2346800000,0.42592043,-0.29896781
2347000000,0.42484245,-0.30005187
2347200000,0.42354515,-0.30057701
2347400000,0.42253956,-0.30128908
2347600000,0.42132598,-0.30219072
2347800000,0.41965759,-0.30309713
2348000000,0.41840705,-0.30355263
2348200000,0.4170132,-0.30429712
2348400000,0.4157207,-0.30492908
2348600000,0.41496497,-0.30592045
2348800000,0.41354087,-0.30632484
2349000000,0.41255295,-0.30705786
2349200000,0.41076598,-0.30771336
2349400000,0.40939239,-0.30861649
2349600000,0.40831411,-0.30885726
2349800000,0.40716046,-0.30986184
2350000000,0.40572986,-0.31053248
2350200000,0.40448001,-0.31129903
2350400000,0.40297478,-0.31187555
2350600000,0.40169477,-0.3125599
2350800000,0.40068105,-0.31335843
2351000000,0.39940226,-0.31383371
2351200000,0.39804509,-0.31460288
2351400000,0.3969329,-0.31519738
2351600000,0.39556456,-0.31587538
2351800000,0.39420065,-0.31627595
2352000000,0.39305025,-0.31682938
2352200000,0.39181852,-0.31758383
2352400000,0.39049372,-0.31817982
2352600000,0.38900942,-0.31866491
2352800000,0.38785121,-0.3195585
2353000000,0.38661626,-0.3200888
2353200000,0.38550088,-0.32084423
2353400000,0.38391456,-0.32112491
2353600000,0.38261619,-0.32196805
2353800000,0.38143319,-0.32264897
2354000000,0.38002771,-0.32318208
2354200000,0.37877682,-0.32388654
2354400000,0.37759143,-0.32431442
2354600000,0.37628609,-0.32496467
2354800000,0.37510249,-0.32581225
2355000000,0.37372851,-0.32573646
2355200000,0.37215722,-0.32629591
2355400000,0.37099698,-0.326754
2355600000,0.36983562,-0.32756627
2355800000,0.36840019,-0.32807669
2356000000,0.36707759,-0.32859474
2356200000,0.36610839,-0.32927647
2356400000,0.3646355,-0.32962149
2356600000,0.3630912,-0.3302407
2356800000,0.36195165,-0.33072692
2357000000,0.36101288,-0.33117837
2357200000,0.35956463,-0.33181244
2357400000,0.35824308,-0.33231318
2357600000,0.35697314,-0.33268282
2357800000,0.35588804,-0.33345446
2358000000,0.35417059,-0.33371767
2358200000,0.35323977,-0.33427882
2358400000,0.35166535,-0.33458167
2358600000,0.35042301,-0.3350018
2358800000,0.34910288,-0.33543244
2359000000,0.3478241,-0.3359876
2359200000,0.34645259,-0.3366197
2359400000,0.3454785,-0.33720338
2359600000,0.34433612,-0.33767912
2359800000,0.34280246,-0.33773544
2360000000,0.34136802,-0.338467
2360200000,0.34005788,-0.33899823
2360400000,0.3389186,-0.33932546
2360600000,0.3377983,-0.33960238
2360800000,0.33630264,-0.33984312
2361000000,0.33482864,-0.34031054
2361200000,0.33375111,-0.34065542
2361400000,0.33225474,-0.34108931
2361600000,0.33109242,-0.34159157
2361800000,0.32980055,-0.34215438
2362000000,0.3282229,-0.34239352
2362200000,0.32729572,-0.34300107
2362400000,0.32585031,-0.34326744
2362600000,0.32450289,-0.34362268
2362800000,0.32330632,-0.34414086
2363000000,0.3218604,-0.3445181
2363200000,0.32068831,-0.34494597
2363400000,0.3195537,-0.34506077
2363600000,0.31790423,-0.34512836
2363800000,0.31688109,-0.34571883
2364000000,0.31563386,-0.34623098
2364200000,0.31440675,-0.34646532
2364400000,0.31303772,-0.34664142
2364600000,0.31157964,-0.34705019
2364800000,0.31024161,-0.34703612
2365000000,0.30876845,-0.34735638
2365200000,0.30761606,-0.3480877
2365400000,0.30637911,-0.34818837
2365600000,0.30480608,-0.34849057
2365800000,0.30366209,-0.34880057
2366000000,0.30265632,-0.34920391
2366200000,0.3012931,-0.34958458
2366400000,0.29974827,-0.34978265
2366600000,0.29835498,-0.35000187
2366800000,0.29710302,-0.35015434
2367000000,0.29577914,-0.35033232
2367200000,0.29465348,-0.35060117
2367400000,0.2930626,-0.35094503
2367600000,0.29171243,-0.35118657
2367800000,0.29040208,-0.3514486
2368000000,0.28914222,-0.35155144
2368200000,0.28798041,-0.35197014
2368400000,0.2865943,-0.35225371
2368600000,0.28521937,-0.35228983
2368800000,0.28371623,-0.35234836
2369000000,0.28255746,-0.35292259
2369200000,0.28141516,-0.35320556
2369400000,0.28001976,-0.35346252
2369600000,0.27861637,-0.35355753
2369800000,0.2775211,-0.3536562
2370000000,0.27614784,-0.35387719
2370200000,0.27485603,-0.3540608
2370400000,0.27318853,-0.354388
2370600000,0.27200022,-0.35443899
2370800000,0.2706576,-0.35446829
2371000000,0.2693581,-0.35472023
2371200000,0.26776332,-0.35505894
2371400000,0.26660556,-0.35498738
2371600000,0.26538676,-0.35527784
2371800000,0.26356786,-0.35532412
2372000000,0.26251128,-0.3555176
2372200000,0.26117793,-0.35557106
2372400000,0.25986907,-0.35605043
2372600000,0.25841725,-0.3559806
2372800000,0.25720865,-0.35598713
2373000000,0.2558971,-0.35600224
2373200000,0.25447884,-0.35618109
2373400000,0.25296968,-0.35625109
2373600000,0.25173101,-0.3564198
2373800000,0.25026876,-0.35642144
2374000000,0.24896723,-0.3567636
2374200000,0.2474495,-0.35669291
2374400000,0.24610646,-0.35667267
2374600000,0.24446072,-0.35662895
2374800000,0.24303186,-0.3568258
2375000000,0.24198042,-0.35683548
2375200000,0.24061471,-0.35683703
2375400000,0.23921259,-0.35683554
2375600000,0.23783311,-0.35696909
2375800000,0.23641326,-0.35713777
2376000000,0.2349149,-0.35693955
2376200000,0.23375297,-0.35712731
2376400000,0.23226792,-0.35694891
2376600000,0.23072298,-0.35714367
2376800000,0.22922696,-0.35691383
2377000000,0.2277804,-0.35674721
2377200000,0.22650421,-0.35683554
2377400000,0.22525306,-0.35694847
2377600000,0.22399092,-0.35702762
2377800000,0.22228552,-0.35710508
2378000000,0.22100879,-0.3566992
2378200000,0.21942364,-0.35678425
2378400000,0.21818671,-0.35675958
2378600000,0.21666054,-0.35658994
2378800000,0.21503036,-0.35650083
2379000000,0.21392202,-0.35634223
2379200000,0.21249762,-0.35619134
2379400000,0.21075298,-0.35621837
2379600000,0.20940791,-0.35604233
2379800000,0.20791581,-0.35593176
2380000000,0.20678045,-0.35574082
2380200000,0.2054508,-0.35566998
2380400000,0.20383456,-0.35549387
2380600000,0.20234506,-0.35550922
2380800000,0.20088211,-0.35529467
2381000000,0.19926926,-0.35472116
2381200000,0.19780624,-0.35488725
2381400000,0.19640602,-0.35474658
2381600000,0.19514038,-0.35445479
2381800000,0.19392201,-0.35441917
2382000000,0.19239642,-0.35422066
2382200000,0.19094962,-0.35383093
2382400000,0.18939954,-0.35360658
2382600000,0.18794748,-0.35345441
2382800000,0.18613838,-0.35294417
2383000000,0.18493183,-0.35287741
2383200000,0.18336612,-0.35235804
2383400000,0.18216845,-0.35249844
2383600000,0.18063517,-0.35182476
2383800000,0.1790951,-0.35153967
2384000000,0.1777871,-0.35133204
2384200000,0.1761549,-0.35087758
2384400000,0.17475177,-0.3506833
2384600000,0.17353831,-0.35034716
2384800000,0.17188257,-0.34991637
2385000000,0.17045091,-0.34983242
2385200000,0.16877475,-0.34949198
2385400000,0.1674867,-0.34906438
2385600000,0.16613343,-0.34875438
2385800000,0.16465585,-0.34812006
2386000000,0.16319361,-0.3478041
2386200000,0.16185962,-0.34731644
2386400000,0.16050346,-0.34718761
2386600000,0.15904535,-0.34669408
2386800000,0.15764776,-0.34611481
2387000000,0.15603986,-0.34583703
2387200000,0.15465862,-0.34524557
2387400000,0.1531889,-0.34491342
2387600000,0.1518323,-0.34458223
2387800000,0.1503893,-0.34406629
2388000000,0.14894892,-0.34365976
2388200000,0.14750817,-0.34312597
2388400000,0.14609367,-0.34273085
2388600000,0.14467128,-0.34222975
2388800000,0.14327033,-0.34170192
2389000000,0.14175074,-0.34128273
2389200000,0.14029349,-0.34083182
2389400000,0.13888659,-0.34048954
2389600000,0.13743387,-0.3397902
2389800000,0.13595019,-0.3394669
2390000000,0.13464895,-0.33900777
2390200000,0.13314557,-0.3383497
2390400000,0.13167454,-0.3377938
2390600000,0.13024755,-0.33681986
2390800000,0.12888074,-0.33640701
2391000000,0.12750673,-0.33626896
2391200000,0.12616153,-0.33560899
2391400000,0.12453291,-0.33511779
2391600000,0.12315018,-0.33419386
2391800000,0.12166918,-0.33366039
2392000000,0.12027545,-0.33310515
2392200000,0.1189298,-0.33274123
2392400000,0.11738878,-0.33202812
2392600000,0.11603276,-0.33157906
2392800000,0.11458354,-0.33092478
2393000000,0.1131773,-0.33021343
2393200000,0.11181208,-0.32943791
2393400000,0.11038264,-0.3290675
2393600000,0.10883436,-0.32849747
2393800000,0.10740411,-0.32778278
2394000000,0.10598394,-0.32706776
2394200000,0.10476101,-0.32670829
2394400000,0.10326111,-0.32575881
2394600000,0.10147022,-0.32507893
2394800000,0.10008418,-0.32429406
2395000000,0.098588757,-0.32333201
2395200000,0.097330369,-0.32267857
2395400000,0.09589304,-0.32205662
2395600000,0.094403423,-0.32134715
2395800000,0.092956685,-0.32053733
2396000000,0.091549821,-0.31986302
2396200000,0.08989834,-0.31912053
2396400000,0.088564157,-0.31847286
2396600000,0.087101519,-0.31771591
2396800000,0.085826121,-0.31698704
2397000000,0.084082909,-0.31599855
2397200000,0.082950614,-0.31543773
2397400000,0.081477329,-0.31450242
2397600000,0.080047637,-0.31380266
2397800000,0.078527063,-0.31284979
2398000000,0.077153906,-0.31172091
2398200000,0.075701475,-0.31095505
2398400000,0.074192539,-0.31024814
2398600000,0.072549388,-0.30943912
2398800000,0.071212023,-0.30838168
2399000000,0.070088565,-0.30759391
2399200000,0.068469927,-0.30682519
2399400000,0.067211673,-0.30576622
2399600000,0.065751754,-0.30464992
2399800000,0.064279601,-0.30389041
2400000000,0.062845066,-0.30288902
2400200000,0.061420582,-0.30218863
2400400000,0.060111828,-0.30096456
2400600000,0.058697689,-0.30001539
2400800000,0.057266507,-0.29918477
2401000000,0.055814542,-0.29803482
2401200000,0.054467,-0.29711044
2401400000,0.053277291,-0.29649836
2401600000,0.051874496,-0.29524523
2401800000,0.050389476,-0.29437789
2402000000,0.049000934,-0.29322869
2402200000,0.047720756,-0.29219192
2402400000,0.046158072,-0.29130462
2402600000,0.044866662,-0.29017565
2402800000,0.043622009,-0.28904566
2403000000,0.042297143,-0.28788167
2403200000,0.040971592,-0.28695068
2403400000,0.03946602,-0.28602633
2403600000,0.038056526,-0.28489891
2403800000,0.036782198,-0.28374994
2404000000,0.035493743,-0.28274632
2404200000,0.034134198,-0.28174973
2404400000,0.032701135,-0.28069323
2404600000,0.031325482,-0.27932429
2404800000,0.030318167,-0.27847281
2405000000,0.028917683,-0.27723858
2405200000,0.027514279,-0.27610627
2405400000,0.026247902,-0.27496821
2405600000,0.025010508,-0.27391186
2405800000,0.023435771,-0.27269828
2406000000,0.021974627,-0.27159953
2406200000,0.02067907,-0.27067181
2406400000,0.019654069,-0.26947162
2406600000,0.018166896,-0.26817131
2406800000,0.01687846,-0.26703978
2407000000,0.015535678,-0.265616
2407200000,0.014223276,-0.26461083
2407400000,0.013005846,-0.26330948
2407600000,0.011683304,-0.26226923
2407800000,0.0102595,-0.26086244
2408000000,0.0091624511,-0.25989342
2408200000,0.007968097,-0.25853014
2408400000,0.0065389127,-0.25734773
2408600000,0.0053036101,-0.2559343
2408800000,0.0038946674,-0.25475705
2409000000,0.0025318733,-0.25371742
2409200000,0.0013139258,-0.25237644
2409400000,5.9451471e-005,-0.25122824
2409600000,-0.0012545261,-0.24948758
2409800000,-0.0023779357,-0.24847145
2410000000,-0.0036192227,-0.24710858
2410200000,-0.0049693319,-0.24578075
2410400000,-0.0060554491,-0.24471216
2410600000,-0.0072441427,-0.24328141
2410800000,-0.0086861765,-0.24208067
2411000000,-0.010011518,-0.24040599
2411200000,-0.011163303,-0.23929432
2411400000,-0.012521316,-0.23807625
2411600000,-0.013751344,-0.23657827
2411800000,-0.014888347,-0.23536992
2412000000,-0.015994463,-0.23379767
2412200000,-0.017184095,-0.2327653
2412400000,-0.018384879,-0.23140721
2412600000,-0.019675188,-0.22988845
2412800000,-0.020760251,-0.22846745
2413000000,-0.022190629,-0.22709297
2413200000,-0.023115227,-0.22556707
2413400000,-0.024318295,-0.22424461
2413600000,-0.025546374,-0.222918
2413800000,-0.026782772,-0.22160093
2414000000,-0.027948691,-0.22022282
2414200000,-0.029072408,-0.21885237
2414400000,-0.030312954,-0.21734086
2414600000,-0.031600155,-0.21587917
2414800000,-0.032703474,-0.21430747
2415000000,-0.033701882,-0.21295427
2415200000,-0.03485417,-0.21153037
2415400000,-0.035950366,-0.21007527
2415600000,-0.037176661,-0.20873095
2415800000,-0.038255863,-0.20716731
