!CSV A.01.01
!Keysight Technologies,N5227A,US51270324,A.10.65.16
!Date: Tuesday, November 11, 2025 01:23:29
!Source: Standard

BEGIN CH1_DATA
Freq(Hz),S11(DB),S11(DEG)
1000000000,-0.15834451,45.028191
1015000000,-0.1509708,42.662491
1030000000,-0.16267788,40.364201
1045000000,-0.16858847,38.065582
1060000000,-0.16456065,35.735268
1075000000,-0.17124614,33.421597
1090000000,-0.16828242,31.131302
1105000000,-0.17748596,28.850029
1120000000,-0.17742592,26.525932
1135000000,-0.18308897,24.211876
1150000000,-0.18119013,21.92448
1165000000,-0.18364042,19.684793
1180000000,-0.18815564,17.387323
1195000000,-0.19233215,15.108974
1210000000,-0.19564009,12.869308
1225000000,-0.19442317,10.597189
1240000000,-0.19342321,8.3660622
1255000000,-0.19466455,6.0801115
1270000000,-0.19994967,3.8309901
1285000000,-0.20966762,1.562919
1300000000,-0.2141732,-0.67047101
1315000000,-0.21240059,-2.9431837
1330000000,-0.21100411,-5.1797996
1345000000,-0.21779466,-7.402174
1360000000,-0.22340877,-9.6336222
1375000000,-0.228535,-11.918601
1390000000,-0.23215796,-14.109254
1405000000,-0.23309314,-16.335831
1420000000,-0.24238651,-18.548285
1435000000,-0.24535608,-20.805986
1450000000,-0.24831922,-23.046234
1465000000,-0.2541537,-25.290167
1480000000,-0.25614893,-27.521938
1495000000,-0.26779211,-29.760059
1510000000,-0.26914114,-32.01292
1525000000,-0.27353704,-34.239216
1540000000,-0.28447041,-36.451263
1555000000,-0.28172258,-38.669834
1570000000,-0.28608981,-40.911987
1585000000,-0.2987344,-43.148575
1600000000,-0.29871184,-45.410698
1615000000,-0.30935264,-47.659386
1630000000,-0.31024387,-49.836594
1645000000,-0.31918344,-52.066803
1660000000,-0.32814908,-54.359432
1675000000,-0.33081383,-56.622135
1690000000,-0.33221501,-58.893326
1705000000,-0.34553176,-61.150864
1720000000,-0.34759295,-63.402187
1735000000,-0.35884455,-65.672035
1750000000,-0.36473387,-67.972046
1765000000,-0.37448585,-70.232635
1780000000,-0.37209278,-72.525139
1795000000,-0.37778205,-74.820045
1810000000,-0.3898809,-77.092033
1825000000,-0.40255001,-79.422539
1840000000,-0.40886939,-81.769051
1855000000,-0.41854405,-84.071045
1870000000,-0.43039721,-86.413734
1885000000,-0.43904135,-88.788879
1900000000,-0.4492673,-91.154297
1915000000,-0.46080816,-93.524864
1930000000,-0.47383884,-95.927734
1945000000,-0.48044857,-98.292488
1960000000,-0.49403268,-100.75613
1975000000,-0.50805801,-103.14913
1990000000,-0.51788318,-105.63808
2005000000,-0.53240836,-108.10194
2020000000,-0.547557,-110.60961
2035000000,-0.56743604,-113.18262
2050000000,-0.58371085,-115.75164
2065000000,-0.60463315,-118.38088
2080000000,-0.6361587,-121.01804
2095000000,-0.65212357,-123.74763
2110000000,-0.68071616,-126.50217
2125000000,-0.70546895,-129.31355
2140000000,-0.75160855,-132.18896
2155000000,-0.79106778,-135.14334
2170000000,-0.84183139,-138.20871
2185000000,-0.89647239,-141.38165
2200000000,-0.9566071,-144.698
2215000000,-1.047989,-148.20186
2230000000,-1.1410233,-151.81497
2245000000,-1.2641968,-155.63672
2260000000,-1.399309,-159.82109
2275000000,-1.5884589,-164.31897
2290000000,-1.8449559,-169.12177
2305000000,-2.1646008,-174.54654
2320000000,-2.6068416,179.6548
2335000000,-3.2284303,172.66495
2350000000,-4.2003279,165.14935
2365000000,-5.4963398,156.8548
2380000000,-7.6965961,146.46252
2395000000,-11.454589,136.14922
2410000000,-20.591341,127.56407
2425000000,-20.977978,-82.864822
2440000000,-11.680872,-89.824219
2455000000,-7.8629994,-99.503975
2470000000,-5.5582738,-109.70739
2485000000,-4.2185287,-118.68612
2500000000,-3.3036602,-126.36696
2515000000,-2.6883121,-133.22307
2530000000,-2.2477777,-139.2522
2545000000,-1.9295733,-144.73276
2560000000,-1.6911556,-149.7124
2575000000,-1.5054278,-154.26215
2590000000,-1.3887272,-158.49246
2605000000,-1.2734337,-162.43645
2620000000,-1.186653,-166.14604
2635000000,-1.1152033,-169.78433
2650000000,-1.0652488,-173.23055
2665000000,-1.0223176,-176.46725
2680000000,-0.98792124,-179.67937
2695000000,-0.95039958,177.26518
2710000000,-0.92884493,174.1806
2725000000,-0.91951299,171.21835
2740000000,-0.90350819,168.23621
2755000000,-0.89129126,165.34297
2770000000,-0.87612361,162.52837
2785000000,-0.87032914,159.70103
2800000000,-0.86265367,156.93246
2815000000,-0.86460686,154.20032
2830000000,-0.84997022,151.49594
2845000000,-0.84241784,148.7496
2860000000,-0.85051972,146.01274
2875000000,-0.85078251,143.30257
2890000000,-0.84815806,140.61127
2905000000,-0.84675938,137.93649
2920000000,-0.84752601,135.24951
2935000000,-0.85208255,132.56628
2950000000,-0.85910302,129.85608
2965000000,-0.86912793,127.17348
2980000000,-0.87033463,124.50475
2995000000,-0.88282675,121.84828
3010000000,-0.89407903,119.173
3025000000,-0.89235145,116.51811
3040000000,-0.906578,113.80103
3055000000,-0.90811014,111.12351
3070000000,-0.92057079,108.41875
3085000000,-0.92462361,105.67556
3100000000,-0.93748808,102.90733
3115000000,-0.94714463,100.1418
3130000000,-0.95864034,97.425674
3145000000,-0.97589147,94.627625
3160000000,-0.98253697,91.821434
3175000000,-1.0067146,88.984924
3190000000,-1.0167412,86.167946
3205000000,-1.0432547,83.283813
3220000000,-1.0570799,80.384232
3235000000,-1.074079,77.485863
3250000000,-1.0976114,74.470802
3265000000,-1.1205482,71.525543
3280000000,-1.1434054,68.502594
3295000000,-1.1719543,65.431831
3310000000,-1.2109104,62.348408
3325000000,-1.2354376,59.243416
3340000000,-1.2676004,56.049992
3355000000,-1.3112334,52.816723
3370000000,-1.3606946,49.535431
3385000000,-1.3946894,46.181488
3400000000,-1.4499775,42.714676
3415000000,-1.5005186,39.262238
3430000000,-1.5583946,35.715679
3445000000,-1.6270202,32.017796
3460000000,-1.7009119,28.259884
3475000000,-1.7932142,24.332191
3490000000,-1.890412,20.382875
3505000000,-2.003315,16.255871
3520000000,-2.1247168,11.965585
3535000000,-2.2789669,7.4596467
3550000000,-2.4584572,2.7761545
3565000000,-2.6662338,-2.0383871
3580000000,-2.8996303,-7.1467648
3595000000,-3.2029097,-12.658756
3610000000,-3.5480633,-18.322792
3625000000,-3.9650404,-24.384113
3640000000,-4.4545751,-30.907528
3655000000,-5.0584311,-37.877762
3670000000,-5.8535409,-45.801537
3685000000,-6.8164697,-54.092369
3700000000,-8.0280638,-63.612087
3715000000,-9.6578951,-74.88382
3730000000,-11.76271,-87.983612
3745000000,-14.514345,-106.75739
3760000000,-17.97473,-138.66585
3775000000,-19.300056,170.37007
3790000000,-16.35006,126.79119
3805000000,-13.231994,102.40269
3820000000,-10.776175,86.439781
3835000000,-8.9608698,74.215157
3850000000,-7.5436726,64.036369
3865000000,-6.4660597,54.654003
3880000000,-5.6078362,46.521637
3895000000,-4.9462948,38.930542
3910000000,-4.396441,31.907389
3925000000,-3.9640524,25.435122
3940000000,-3.611716,19.39649
3955000000,-3.3097594,13.576097
3970000000,-3.0645812,8.0984688
3985000000,-2.8724597,2.9043407
4000000000,-2.6919191,-2.1664431
END

